(1761843323.245272) vcan0 100#19B082ED72A306
(1761843323.255464) vcan0 7DF#F83E4322
(1761843323.255591) vcan0 7E8#035001
(1761843323.265640) vcan0 300#BEDC
(1761843323.275815) vcan0 300#41B04B8CF146DF06
(1761843323.286006) vcan0 300#B6BA8FDF
(1761843323.296294) vcan0 300#5B9B74AA86
(1761843323.306508) vcan0 200#B801B4CC
(1761843323.316682) vcan0 7DF#25
(1761843323.316914) vcan0 7E8#035001
(1761843323.326871) vcan0 100#3ED3
(1761843323.337131) vcan0 7E0#7E3D2B1B70E0CF
(1761843323.347392) vcan0 7E0#94B599DB
(1761843323.357587) vcan0 300#9D9F
(1761843323.367774) vcan0 200#6C5D1B
(1761843323.377964) vcan0 7DF#19D7A3670B530E9E
(1761843323.378242) vcan0 7E8#035001
(1761843323.388177) vcan0 7DF#0D3C87D8CD829E5D
(1761843323.388338) vcan0 7E8#035001
(1761843323.398358) vcan0 100#00FD34B0
(1761843323.408542) vcan0 7E0#ED31F94E4B84
(1761843323.418720) vcan0 7DF#4608DE3E
(1761843323.418950) vcan0 7E8#035001
(1761843323.428897) vcan0 7E0#80
(1761843323.439093) vcan0 7DF#6EA00103
(1761843323.439381) vcan0 7E8#035001
(1761843323.449282) vcan0 100#44B758A32E
(1761843323.459488) vcan0 100#74AF4D1286
(1761843323.469714) vcan0 7E0#007D0E327E5D03
(1761843323.479931) vcan0 300#DBCEF6B789BCDD61
(1761843323.490127) vcan0 100#
(1761843323.500308) vcan0 300#BED5
(1761843323.510484) vcan0 300#70C7070A65BA22F6
(1761843323.520671) vcan0 200#B944BE59A3F57A26
(1761843323.530835) vcan0 7DF#150C04
(1761843323.530989) vcan0 7E8#035001
(1761843323.540995) vcan0 7E0#8CD7
(1761843323.551200) vcan0 100#10D5D17A670C
(1761843323.561398) vcan0 300#
(1761843323.571597) vcan0 7E0#2C2D
(1761843323.581806) vcan0 300#622C4FF5610A8A
(1761843323.591992) vcan0 300#6102C08B
(1761843323.602197) vcan0 7DF#E3D6350E5E3854
(1761843323.602366) vcan0 7E8#035001
(1761843323.612346) vcan0 200#BE2D7551
(1761843323.622505) vcan0 300#0E5456A291
(1761843323.632654) vcan0 7E0#1649DB
(1761843323.642814) vcan0 100#37AB
(1761843323.652989) vcan0 200#E293
(1761843323.663136) vcan0 100#A5A6F536
(1761843323.673321) vcan0 200#D6E3C40AEB847A10
(1761843323.683502) vcan0 7DF#C02850F116
(1761843323.683740) vcan0 7E8#035001
(1761843323.693710) vcan0 7DF#301DBB6180
(1761843323.693869) vcan0 7E8#035001
(1761843323.703942) vcan0 300#5E9F6A2C4A7A
(1761843323.714184) vcan0 200#B353E08A9570
(1761843323.724430) vcan0 100#F030099A9349
(1761843323.734645) vcan0 7DF#405B755D1448BA45
(1761843323.734777) vcan0 7E8#035001
(1761843323.744792) vcan0 200#5F07
(1761843323.754961) vcan0 7E0#40B92A7D91F3
(1761843323.765112) vcan0 7E0#E136D8
(1761843323.775259) vcan0 100#F69FD2EB5D93
(1761843323.785457) vcan0 300#74D67A85BCC6E177
(1761843323.795630) vcan0 7E0#DA
(1761843323.805820) vcan0 200#C98FB33498C3
(1761843323.815995) vcan0 200#FE7FCD70BE692F
(1761843323.826223) vcan0 300#A3F060
(1761843323.836451) vcan0 200#3DF7990D009D
(1761843323.846656) vcan0 100#
(1761843323.856867) vcan0 7DF#6F9B
(1761843323.857055) vcan0 7E8#035001
(1761843323.867075) vcan0 7E0#E4403FB4
(1761843323.877280) vcan0 300#
(1761843323.887494) vcan0 7E0#175AC2
(1761843323.897666) vcan0 7E0#8D
(1761843323.907849) vcan0 7E0#353E5F087D63F93E
(1761843323.918073) vcan0 100#9E
(1761843323.928254) vcan0 200#1A0715894C7802
(1761843323.938483) vcan0 7DF#5F97EA93F30FC9
(1761843323.938676) vcan0 7E8#035001
(1761843323.948699) vcan0 7DF#92
(1761843323.948827) vcan0 7E8#035001
(1761843323.958921) vcan0 7DF#45BC33B6
(1761843323.959097) vcan0 7E8#035001
(1761843323.969226) vcan0 300#943C00F1C146
(1761843323.979506) vcan0 300#2DD1F64293
(1761843323.989735) vcan0 200#C4F4ABC589AE66
(1761843323.999927) vcan0 7E0#CA
(1761843324.010102) vcan0 200#
(1761843324.020290) vcan0 200#3832B6BD50
(1761843324.030469) vcan0 100#24E083B767
(1761843324.040658) vcan0 200#DAB7F7FC04239D
(1761843324.050836) vcan0 7E0#90984D
(1761843324.061057) vcan0 200#
(1761843324.071311) vcan0 7E0#B5280B6EE2
(1761843324.081547) vcan0 100#B80AB0B6
(1761843324.091718) vcan0 300#F88581FF
(1761843324.101936) vcan0 100#2AD5
(1761843324.112087) vcan0 7E0#FA
(1761843324.122254) vcan0 300#47BBA78E8273D6
(1761843324.132426) vcan0 100#EC3A3E8BCBBF8843
(1761843324.142601) vcan0 100#3437357FED54
(1761843324.152800) vcan0 7DF#05A01040FF
(1761843324.152963) vcan0 7E8#035001
(1761843324.162998) vcan0 100#E7A74D3719
(1761843324.173216) vcan0 200#7C0DA69ABE
(1761843324.183402) vcan0 7DF#D1CC870500
(1761843324.183520) vcan0 7E8#035001
(1761843324.193552) vcan0 300#0FC499AF043967
(1761843324.203725) vcan0 7DF#7A6AAC026B81935E
(1761843324.203886) vcan0 7E8#035001
(1761843324.213891) vcan0 7DF#0C14058B7A56
(1761843324.213986) vcan0 7E8#035001
(1761843324.224071) vcan0 100#6BF306AF80
(1761843324.234252) vcan0 7E0#C2E2F9C75AF1E83F
(1761843324.244414) vcan0 7DF#F6CF84123E2D12ED
(1761843324.244562) vcan0 7E8#035001
(1761843324.254603) vcan0 7DF#76B9D2112EB90820
(1761843324.254763) vcan0 7E8#035001
(1761843324.264786) vcan0 100#C045A7DC9A0D4C
(1761843324.274974) vcan0 200#C62964853B91
(1761843324.285185) vcan0 7E0#FCFDEA
(1761843324.295359) vcan0 200#D76529E6C6A9B9
(1761843324.305539) vcan0 300#5EE4CD6D
(1761843324.315699) vcan0 200#49C7A01DCFD5205B
(1761843324.325875) vcan0 7DF#70CAC9E48D2111
(1761843324.325988) vcan0 7E8#035001
(1761843324.336050) vcan0 100#E5B269063C
(1761843324.346238) vcan0 7E0#83C9DDC83422191A
(1761843324.356416) vcan0 200#05D5BF38D4E493
(1761843324.366604) vcan0 100#B8
(1761843324.376765) vcan0 200#428E55
(1761843324.386932) vcan0 7E0#10EC
(1761843324.397089) vcan0 7E0#D7E86BA74E39892B
(1761843324.407259) vcan0 100#E850608196F0C6
(1761843324.417450) vcan0 7DF#CC7E511232
(1761843324.417598) vcan0 7E8#035001
(1761843324.427625) vcan0 7DF#73B5AC17
(1761843324.427706) vcan0 7E8#035001
(1761843324.437818) vcan0 7DF#
(1761843324.438016) vcan0 7E8#035001
(1761843324.448198) vcan0 7DF#0A22B0
(1761843324.448343) vcan0 7E8#035001
(1761843324.458435) vcan0 200#876F4AF08F30
(1761843324.468632) vcan0 100#137643
(1761843324.478811) vcan0 100#909508
(1761843324.488991) vcan0 7DF#E9F3E444F8BBDDAE
(1761843324.489248) vcan0 7E8#035001
(1761843324.499157) vcan0 200#CF5301
(1761843324.509308) vcan0 7E0#5986BE0E0D
(1761843324.519479) vcan0 300#FA178A070E0E23
(1761843324.529645) vcan0 200#B583BDFAD5E2
(1761843324.539814) vcan0 7DF#8BC030C467
(1761843324.539987) vcan0 7E8#035001
(1761843324.550001) vcan0 200#DC78F65E1832758C
(1761843324.560212) vcan0 7DF#4E
(1761843324.560348) vcan0 7E8#035001
(1761843324.570435) vcan0 7E0#EC396E377778
(1761843324.580630) vcan0 7DF#ED84E6
(1761843324.580759) vcan0 7E8#035001
(1761843324.590801) vcan0 200#E3217A7F90
(1761843324.600989) vcan0 7DF#2DD055D4
(1761843324.601135) vcan0 7E8#035001
(1761843324.611144) vcan0 7E0#DD
(1761843324.621317) vcan0 7DF#
(1761843324.621464) vcan0 7E8#035001
(1761843324.631476) vcan0 7E0#70C3E4
(1761843324.641627) vcan0 7DF#157F09775F
(1761843324.641758) vcan0 7E8#035001
(1761843324.651788) vcan0 7DF#EDC74767
(1761843324.651932) vcan0 7E8#035001
(1761843324.661939) vcan0 100#D283BD
(1761843324.672215) vcan0 7DF#A3
(1761843324.672465) vcan0 7E8#035001
(1761843324.682369) vcan0 7E0#D633C6A9DB
(1761843324.692543) vcan0 300#5652A5627035
(1761843324.702721) vcan0 100#
(1761843324.712918) vcan0 200#
(1761843324.723114) vcan0 7DF#25DB17
(1761843324.723285) vcan0 7E8#035001
(1761843324.733305) vcan0 100#AA4E
(1761843324.743470) vcan0 100#1D4030E911BCE4
(1761843324.753669) vcan0 300#96E20BEB81
(1761843324.763851) vcan0 7E0#9272F02C50C8
(1761843324.774028) vcan0 300#DD99
(1761843324.784240) vcan0 300#E62B169B25
(1761843324.794429) vcan0 7DF#D8B2
(1761843324.794554) vcan0 7E8#035001
(1761843324.804623) vcan0 7DF#1E1A51AFB88E
(1761843324.804763) vcan0 7E8#035001
(1761843324.814810) vcan0 7DF#9EC7
(1761843324.814910) vcan0 7E8#035001
(1761843324.824957) vcan0 7E0#F4A74B495460DC
(1761843324.835154) vcan0 200#CA8A5BAFF127
(1761843324.845431) vcan0 7DF#E286CD
(1761843324.845560) vcan0 7E8#035001
(1761843324.855626) vcan0 7E0#CCF9D9F77719
(1761843324.865807) vcan0 100#C7B6
(1761843324.875970) vcan0 7DF#E5
(1761843324.876086) vcan0 7E8#035001
(1761843324.886133) vcan0 7DF#156A43248955
(1761843324.886291) vcan0 7E8#035001
(1761843324.896345) vcan0 100#AA0F7745
(1761843324.906546) vcan0 100#1DA10AAC26FC
(1761843324.916738) vcan0 7DF#FAAF34DC90D5D3
(1761843324.916884) vcan0 7E8#035001
(1761843324.926893) vcan0 200#B7
(1761843324.937067) vcan0 7DF#17F3BB
(1761843324.937222) vcan0 7E8#035001
(1761843324.947255) vcan0 7DF#7129CA90BF
(1761843324.947404) vcan0 7E8#035001
(1761843324.957435) vcan0 300#FF1B1AE3
(1761843324.967628) vcan0 300#63
(1761843324.977828) vcan0 200#FE
(1761843324.988041) vcan0 200#9C7C
(1761843324.998224) vcan0 100#989C
(1761843325.008374) vcan0 100#80222091F1215FD5
(1761843325.018554) vcan0 100#8A11257CAFB405
(1761843325.028715) vcan0 200#18DF
(1761843325.038896) vcan0 7E0#5653F1FE55
(1761843325.049089) vcan0 100#
(1761843325.059233) vcan0 100#95B8
(1761843325.069428) vcan0 7E0#CF5CAA3A509D3C74
(1761843325.079627) vcan0 300#41EA3F1788
(1761843325.089815) vcan0 7E0#6E23CBE038
(1761843325.100020) vcan0 300#92AB24
(1761843325.110228) vcan0 200#3F0E
(1761843325.120601) vcan0 7DF#5B0A8325A4
(1761843325.120746) vcan0 7E8#035001
(1761843325.131318) vcan0 200#749E9CD74B4A
(1761843325.141539) vcan0 7E0#60A4BF1F
(1761843325.151729) vcan0 100#D06319
(1761843325.161898) vcan0 100#
(1761843325.172082) vcan0 200#FA1CC0F0
(1761843325.182262) vcan0 7E0#2A
(1761843325.192435) vcan0 300#AF691FE8DB
(1761843325.202621) vcan0 200#39AAC017A70533D0
(1761843325.212790) vcan0 300#E1206913CB5E619E
(1761843325.222983) vcan0 100#223E7DECAE
(1761843325.233204) vcan0 300#CB
(1761843325.243437) vcan0 200#D7925FF3
(1761843325.253607) vcan0 7E0#DCE410BD7A41
(1761843325.263803) vcan0 100#AB7599B085A6
(1761843325.273985) vcan0 200#C4BE1E7A08
(1761843325.284183) vcan0 100#80
(1761843325.294333) vcan0 200#1F7B
(1761843325.304482) vcan0 7E0#AAF936EF
(1761843325.314672) vcan0 300#FA00B782D30AAA
(1761843325.324860) vcan0 200#8B070BAD254F
(1761843325.335064) vcan0 300#A529
(1761843325.345273) vcan0 200#6FA0
(1761843325.355502) vcan0 300#E6F25002D2A565
(1761843325.365682) vcan0 300#3F3D5A
(1761843325.375821) vcan0 200#7F4736
(1761843325.385962) vcan0 300#F6C3CAA5D8
(1761843325.396096) vcan0 7E0#4282
(1761843325.406239) vcan0 100#D7
(1761843325.416419) vcan0 7E0#8F3FE65CB2C8E292
(1761843325.426605) vcan0 7DF#1FFCA942
(1761843325.426754) vcan0 7E8#035001
(1761843325.436811) vcan0 7DF#E7103599
(1761843325.436961) vcan0 7E8#035001
(1761843325.446988) vcan0 7E0#CA4CFC6E6FFA
(1761843325.457155) vcan0 7DF#90EAA9
(1761843325.457323) vcan0 7E8#035001
(1761843325.467353) vcan0 200#867FCD7A18E7DA
(1761843325.477505) vcan0 300#4AE9FE
(1761843325.487666) vcan0 300#E4C7B951F327
(1761843325.497847) vcan0 300#409D38DF4A
(1761843325.508042) vcan0 7DF#A82559BB
(1761843325.508298) vcan0 7E8#035001
(1761843325.518264) vcan0 7E0#A858BA14822E
(1761843325.528461) vcan0 300#9349
(1761843325.538672) vcan0 7DF#4F83371E
(1761843325.538815) vcan0 7E8#035001
(1761843325.548907) vcan0 7DF#AD2E0E0784BF
(1761843325.549047) vcan0 7E8#035001
(1761843325.559115) vcan0 100#6F61B502
(1761843325.569392) vcan0 300#1E7BD0F72E72
(1761843325.579578) vcan0 7E0#
(1761843325.589730) vcan0 7DF#47A87CC7DD9D17DE
(1761843325.589898) vcan0 7E8#035001
(1761843325.599919) vcan0 7DF#1AEC0E78DD76C882
(1761843325.600068) vcan0 7E8#035001
(1761843325.610105) vcan0 7DF#91
(1761843325.610280) vcan0 7E8#035001
(1761843325.620246) vcan0 300#0E9DA9791E2C
(1761843325.630412) vcan0 100#976C032C
(1761843325.640570) vcan0 300#
(1761843325.650738) vcan0 200#9FED133B743C74
(1761843325.660886) vcan0 100#E74459
(1761843325.671051) vcan0 200#2FF04A1ED6D7
(1761843325.681222) vcan0 100#6459AB57
(1761843325.691370) vcan0 300#9B709C44DFFF
(1761843325.701525) vcan0 7E0#9FFFAAC1
(1761843325.711694) vcan0 100#
(1761843325.721870) vcan0 100#
(1761843325.732027) vcan0 300#
(1761843325.742248) vcan0 7DF#042AA1
(1761843325.742384) vcan0 7E8#035001
(1761843325.752402) vcan0 7DF#
(1761843325.752546) vcan0 7E8#035001
(1761843325.762547) vcan0 7E0#14F6
(1761843325.772714) vcan0 100#05
(1761843325.782847) vcan0 100#C8E7FEC4D374DCD5
(1761843325.792985) vcan0 100#26
(1761843325.803130) vcan0 200#
(1761843325.813352) vcan0 100#5EAEC92CA2
(1761843325.823560) vcan0 300#1C4F35A4
(1761843325.833751) vcan0 200#
(1761843325.843961) vcan0 100#8C
(1761843325.854153) vcan0 300#BCA230
(1761843325.864386) vcan0 7DF#56ECF64E